
T1D5C 000:033 SEGGER J-Link V4.72a Log File (0000ms, 0032ms total)
T1D5C 000:033 DLL Compiled: Jun 26 2013 11:49:14 (0000ms, 0032ms total)
T1D5C 000:033 Logging started @ 2013-11-21 12:39 (0000ms, 0032ms total)
T1D5C 000:033 JLINK_SetWarnOutHandler(...) (0000ms, 0032ms total)
T1D5C 000:033 JLINK_OpenEx(...)
Firmware: J-Link ARM V8 compiled Nov 14 2012 22:34:52
Hardware: V8.00
S/N: 17935099
Feature(s): RDI,FlashDL,FlashBP,JFlash  returns O.K. (0023ms, 0055ms total)
T1D5C 000:056 JLINK_SetErrorOutHandler(...) (0000ms, 0055ms total)
T1D5C 000:056 JLINK_ExecCommand("Device = STM32F103ZE", ...)
                JLINK_AddMirrorAreaEx(Addr = 0x00000000, Size = 0x00000000) (0000ms, 0000ms total)
              Device "STM32F103ZE" selected (512 KB flash, 64 KB RAM).  returns 0x00 (0000ms, 0055ms total)
T1D5C 000:056 JLINK_ExecCommand("ProjectFile = "D:\ARM\MYTEST\¼Ä´æÆ÷\mpu6050DMP\USER\JLinkSettings.ini"", ...)  returns 0x00 (0001ms, 0056ms total)
T1D5C 000:057 JLINK_ExecCommand("DisableConnectionTimeout", ...)  returns 0x00 (0000ms, 0056ms total)
T1D5C 000:057 JLINK_TIF_Select(JLINKARM_TIF_JTAG)  returns 0x00 (0000ms, 0056ms total)
T1D5C 000:057 JLINK_SetSpeed(2000) (0000ms, 0056ms total)
T1D5C 000:057 JLINK_GetHardwareVersion()  returns 0x13880 (0000ms, 0056ms total)
T1D5C 000:057 JLINK_GetDLLVersion()  returns 47201 (0000ms, 0056ms total)
T1D5C 000:057 JLINK_GetFirmwareString(...) (0000ms, 0056ms total)
T1D5C 000:058 JLINK_GetDLLVersion()  returns 47201 (0000ms, 0056ms total)
T1D5C 000:058 JLINK_GetCompileDateTime() (0000ms, 0056ms total)
T1D5C 000:058 JLINK_GetFirmwareString(...) (0000ms, 0056ms total)
T1D5C 000:058 JLINK_GetHardwareVersion()  returns 0x13880 (0000ms, 0056ms total)
T1D5C 000:059 JLINK_GetIdData(...) >0x2F8 JTAG>TotalIRLen = 9, IRPrint = 0x0011 >0x30 JTAG> >0x210 JTAG> >0x40 JTAG> >0x40 JTAG> >0x40 JTAG> >0x30 JTAG> >0x40 JTAG> >0x40 JTAG> >0x40 JTAG> >0x40 JTAG> >0x40 JTAG> >0x40 JTAG> >0x40 JTAG> >0x40 JTAG> >0x2F8 JTAG>TotalIRLen = 9, IRPrint = 0x0011 >0x30 JTAG> >0x210 JTAG> >0x80 JTAG> >0x40 JTAG> >0x40 JTAG> >0x50 JTAG> >0x40 JTAG> >0x40 JTAG> >0x40 JTAG> >0x50 JTAG> >0x40 JTAG> >0x40 JTAG> >0x40 JTAG> >0x30 JTAG> >0x40 JTAG> >0x50 JTAG> >0x40 JTAG>
 >0x38 JTAG> >0x80 JTAG> >0x40 JTAG> >0x40 JTAG> >0x50 JTAG> >0x40 JTAG> >0x40 JTAG> >0x40 JTAG> >0x50 JTAG> >0x40 JTAG> >0x40 JTAG> >0x30 JTAG> >0x40 JTAG> >0x40 JTAG> >0x40 JTAG> >0x40 JTAG> >0x40 JTAG> >0x50 JTAG> >0x40 JTAG> >0x80 JTAG> >0x40 JTAG> >0x30 JTAG> >0x40 JTAG> >0x40 JTAG> >0x40 JTAG> >0x40 JTAG> >0x40 JTAG> >0x50 JTAG> >0x40 JTAG> >0x80 JTAG> >0x40 JTAG> >0x30 JTAG> >0x40 JTAG> >0x50 JTAG> >0x40 JTAG> >0x40 JTAG> >0x40 JTAG> >0x30 JTAG> >0x40 JTAG> >0x50 JTAG> >0x40 JTAG>
Found Cortex-M3 r1p1, Little endian. >0x50 JTAG> >0x50 JTAG> >0x40 JTAG> >0x40 JTAG> >0x30 JTAG> >0x30 JTAG> >0x50 JTAG> >0x40 JTAG> >0x80 JTAG> >0x40 JTAG> >0x30 JTAG> >0x40 JTAG> >0x50 JTAG> >0x40 JTAG> >0x40 JTAG> >0x40 JTAG> >0x30 JTAG> >0x40 JTAG> >0x50 JTAG> >0x40 JTAG>TPIU fitted. >0x40 JTAG> >0x40 JTAG> >0x30 JTAG> >0x40 JTAG> >0x50 JTAG> >0x40 JTAG>ETM fitted. >0x40 JTAG> >0x40 JTAG> >0x30 JTAG> >0x40 JTAG> >0x50 JTAG> >0x40 JTAG> >0x40 JTAG> >0x40 JTAG> >0x30 JTAG> >0x40 JTAG> >0x50 JTAG>
 >0x40 JTAG>FPUnit: 6 code (BP) slots and 2 literal slots >0x40 JTAG> >0x40 JTAG> >0x30 JTAG> >0x40 JTAG> >0x50 JTAG> >0x40 JTAG> >0x40 JTAG> >0x40 JTAG> >0x30 JTAG> >0x40 JTAG> >0x50 JTAG> >0x40 JTAG> >0x40 JTAG> >0x40 JTAG> >0x30 JTAG> >0x30 JTAG> >0x50 JTAG> >0x40 JTAG> ScanLen=9 NumDevices=2 aId[0]=0x3BA00477 aIrRead[0]=0 aScanLen[0]=0 aScanRead[0]=0 (0135ms, 0191ms total)
T1D5C 000:194 JLINK_JTAG_GetDeviceID(DeviceIndex = 0)  returns 0x3BA00477 (0000ms, 0191ms total)
T1D5C 000:194 JLINK_JTAG_GetDeviceInfo(DeviceIndex = 0)  returns 0x00 (0001ms, 0192ms total)
T1D5C 000:195 JLINK_JTAG_GetDeviceID(DeviceIndex = 1)  returns 0x6414041 (0000ms, 0192ms total)
T1D5C 000:195 JLINK_JTAG_GetDeviceInfo(DeviceIndex = 1)  returns 0x00 (0000ms, 0192ms total)
T1D5C 000:195 JLINK_GetDebugInfo(0x100) -- Value=0xE00FF003  returns 0x00 (0000ms, 0192ms total)
T1D5C 000:195 JLINK_ReadMem (0xE00FFFF0, 0x0010 Bytes, ...) -- CPU is running -- CPU_ReadMem(16 bytes @ 0xE00FFFF0) -- Data:  0D 00 00 00 10 00 00 00 05 00 00 00 B1 00 00 00  returns 0x00 (0005ms, 0197ms total)
T1D5C 000:200 JLINK_ReadMem (0xE00FFFD0, 0x0020 Bytes, ...) -- CPU is running -- CPU_ReadMem(32 bytes @ 0xE00FFFD0) -- Data:  00 00 00 00 00 00 00 00 00 00 00 00 00 00 00 00 ...  returns 0x00 (0002ms, 0199ms total)
T1D5C 000:202 JLINK_ReadMem (0xE00FF000, 0x0018 Bytes, ...) -- CPU is running -- CPU_ReadMem(24 bytes @ 0xE00FF000) -- Data:  03 F0 F0 FF 03 20 F0 FF 03 30 F0 FF 03 10 F0 FF ...  returns 0x00 (0002ms, 0201ms total)
T1D5C 000:204 JLINK_ReadMemU32(0xE000ED00, 0x0001 Items, ...) -- CPU is running -- CPU_ReadMem(4 bytes @ 0xE000ED00) -- Data:  31 C2 1F 41  returns 0x01 (0001ms, 0202ms total)
T1D5C 000:205 JLINK_SetResetType(JLINKARM_RESET_TYPE_NORMAL)  returns JLINKARM_RESET_TYPE_NORMAL (0000ms, 0202ms total)
T1D5C 000:205 JLINK_Reset() >0x88 JTAG> >0x80 JTAG> >0x40 JTAG> >0x40 JTAG> >0x50 JTAG> >0x40 JTAG> >0x40 JTAG> >0x40 JTAG> >0x50 JTAG> >0x40 JTAG> >0x40 JTAG> >0x30 JTAG> >0x40 JTAG> >0x40 JTAG> >0x40 JTAG> >0x40 JTAG> >0x40 JTAG> >0x50 JTAG> >0x40 JTAG> >0x80 JTAG> >0x40 JTAG> >0x30 JTAG> >0x40 JTAG> >0x40 JTAG> >0x40 JTAG> >0x40 JTAG> >0x40 JTAG> >0x50 JTAG> >0x40 JTAG> >0x80 JTAG> >0x40 JTAG> >0x30 JTAG> >0x40 JTAG> >0x50 JTAG> >0x40 JTAG> >0x40 JTAG> >0x40 JTAG> >0x30 JTAG> >0x40 JTAG> >0x50 JTAG>
 >0x40 JTAG>Found Cortex-M3 r1p1, Little endian. >0x50 JTAG> >0x50 JTAG> >0x40 JTAG> >0x40 JTAG> >0x30 JTAG> >0x30 JTAG> >0x50 JTAG> >0x40 JTAG> >0x80 JTAG> >0x40 JTAG> >0x30 JTAG> >0x40 JTAG> >0x50 JTAG> >0x40 JTAG> >0x40 JTAG> >0x40 JTAG> >0x30 JTAG> >0x40 JTAG> >0x50 JTAG> >0x40 JTAG>TPIU fitted. >0x40 JTAG> >0x40 JTAG> >0x30 JTAG> >0x40 JTAG> >0x50 JTAG> >0x40 JTAG>ETM fitted. >0x40 JTAG> >0x40 JTAG> >0x30 JTAG> >0x40 JTAG> >0x50 JTAG> >0x40 JTAG> >0x40 JTAG> >0x40 JTAG> >0x30 JTAG> >0x40 JTAG>
 >0x50 JTAG> >0x40 JTAG>FPUnit: 6 code (BP) slots and 2 literal slots >0x40 JTAG> >0x40 JTAG> >0x30 JTAG> >0x40 JTAG> >0x50 JTAG> >0x40 JTAG> >0x40 JTAG> >0x40 JTAG> >0x30 JTAG> >0x40 JTAG> >0x50 JTAG> >0x40 JTAG> >0x40 JTAG> >0x40 JTAG> >0x30 JTAG> >0x30 JTAG> >0x50 JTAG> >0x40 JTAG> -- CPU is running -- CPU_WriteMem(4 bytes @ 0xE000EDF0) -- CPU is running -- CPU_WriteMem(4 bytes @ 0xE000EDFC) -- CPU is running -- CPU_WriteMem(4 bytes @ 0xE000ED0C) -- CPU is running -- CPU_ReadMem(4 bytes @ 0xE000EDF0)
 -- CPU is running -- CPU_ReadMem(4 bytes @ 0xE000EDF0) -- CPU is running -- CPU_WriteMem(4 bytes @ 0xE000EDF0) -- CPU is running -- CPU_WriteMem(4 bytes @ 0xE000EDFC) -- CPU is running -- CPU_ReadMem(4 bytes @ 0xE000EDF0) >0xD0 JTAG> >0x40 JTAG> >0x30 JTAG> >0x40 JTAG> >0x50 JTAG> >0x40 JTAG> -- CPU_WriteMem(4 bytes @ 0xE000EDFC) -- CPU_WriteMem(4 bytes @ 0xE0001028) -- CPU_WriteMem(4 bytes @ 0xE0001038) -- CPU_WriteMem(4 bytes @ 0xE0001048) -- CPU_WriteMem(4 bytes @ 0xE0001058)
 -- CPU_WriteMem(4 bytes @ 0xE0002000) (0138ms, 0340ms total)
T1D5C 000:343 JLINK_ReadReg(R15 (PC))  returns 0x08000256 (0000ms, 0340ms total)
T1D5C 000:343 JLINK_ReadReg(XPSR)  returns 0x01000000 (0000ms, 0340ms total)
T1D5C 000:343 JLINK_Halt()  returns 0x00 (0001ms, 0341ms total)
T1D5C 000:344 JLINK_IsHalted()  returns TRUE (0000ms, 0341ms total)
T1D5C 000:344 JLINK_ReadMemU32(0xE000EDF0, 0x0001 Items, ...) -- CPU_ReadMem(4 bytes @ 0xE000EDF0) -- Data:  03 00 03 00  returns 0x01 (0001ms, 0342ms total)
T1D5C 000:345 JLINK_WriteU32(0xE000EDF0, 0xA05F0003) -- CPU_WriteMem(4 bytes @ 0xE000EDF0)  returns 0x00 (0001ms, 0343ms total)
T1D5C 000:346 JLINK_WriteU32(0xE000EDFC, 0x01000000) -- CPU_WriteMem(4 bytes @ 0xE000EDFC)  returns 0x00 (0001ms, 0344ms total)
T1D5C 000:347 JLINK_ReadMemU32(0xE0002000, 0x0001 Items, ...) -- CPU_ReadMem(4 bytes @ 0xE0002000) -- Data:  61 02 00 00  returns 0x01 (0001ms, 0345ms total)
T1D5C 000:348 JLINK_ReadMemU32(0xE0001000, 0x0001 Items, ...) -- CPU_ReadMem(4 bytes @ 0xE0001000) -- Data:  01 00 00 40  returns 0x01 (0001ms, 0346ms total)
T1D5C 000:349 JLINK_WriteU32(0xE0001028, 0x00000000) -- CPU_WriteMem(4 bytes @ 0xE0001028)  returns 0x00 (0001ms, 0347ms total)
T1D5C 000:350 JLINK_WriteU32(0xE0001038, 0x00000000) -- CPU_WriteMem(4 bytes @ 0xE0001038)  returns 0x00 (0001ms, 0348ms total)
T1D5C 000:351 JLINK_WriteU32(0xE0001048, 0x00000000) -- CPU_WriteMem(4 bytes @ 0xE0001048)  returns 0x00 (0001ms, 0349ms total)
T1D5C 000:352 JLINK_WriteU32(0xE0001058, 0x00000000) -- CPU_WriteMem(4 bytes @ 0xE0001058)  returns 0x00 (0001ms, 0350ms total)
T1D5C 000:355 JLINK_GetHWStatus(...)  returns 0x00 (0000ms, 0350ms total)
T1D5C 000:356 JLINK_GetNumBPUnits(Type = 0xFFFFFF00)  returns 0x06 (0000ms, 0350ms total)
T1D5C 000:356 JLINK_GetNumBPUnits(Type = 0xF0)  returns 0x2000 (0000ms, 0350ms total)
T1D5C 000:356 JLINK_GetNumWPUnits()  returns 0x04 (0000ms, 0350ms total)
T1D5C 000:357 JLINK_GetSpeed()  returns 0x7D0 (0000ms, 0350ms total)
T1D5C 000:357 JLINK_ReadMemU32(0xE000E004, 0x0001 Items, ...) -- CPU_ReadMem(4 bytes @ 0xE000E004) -- Data:  01 00 00 00  returns 0x01 (0002ms, 0352ms total)
T1D5C 000:359 JLINK_ReadMemU32(0xE000E004, 0x0001 Items, ...) -- CPU_ReadMem(4 bytes @ 0xE000E004) -- Data:  01 00 00 00  returns 0x01 (0001ms, 0353ms total)
T1D5C 000:360 JLINK_WriteMem(0xE0001000, 0x001C Bytes, ...) -- Data:  01 00 00 00 00 00 00 00 00 00 00 00 00 00 00 00 ... -- CPU_WriteMem(28 bytes @ 0xE0001000)  returns 0x1C (0002ms, 0355ms total)
T1D5C 000:362 JLINK_ReadMem (0xE0001000, 0x001C Bytes, ...) -- CPU_ReadMem(28 bytes @ 0xE0001000) -- Data:  01 00 00 40 00 00 00 00 00 00 00 00 00 00 00 00 ...  returns 0x00 (0002ms, 0357ms total)
T1D5C 000:364 JLINK_ReadReg(R15 (PC))  returns 0x08000256 (0000ms, 0357ms total)
T1D5C 000:364 JLINK_ReadReg(XPSR)  returns 0x01000000 (0000ms, 0357ms total)
T1D5C 000:477 JLINK_SetResetType(JLINKARM_RESET_TYPE_NORMAL)  returns JLINKARM_RESET_TYPE_NORMAL (0000ms, 0357ms total)
T1D5C 000:477 JLINK_Reset() >0x38 JTAG> >0x80 JTAG> >0x40 JTAG> >0x40 JTAG> >0x50 JTAG> >0x40 JTAG> >0x40 JTAG> >0x40 JTAG> >0x50 JTAG> >0x40 JTAG> >0x40 JTAG> >0x30 JTAG> >0x40 JTAG> >0x40 JTAG> >0x40 JTAG> >0x40 JTAG> >0x40 JTAG> >0x50 JTAG> >0x40 JTAG> >0x80 JTAG> >0x40 JTAG> >0x30 JTAG> >0x40 JTAG> >0x40 JTAG> >0x40 JTAG> >0x40 JTAG> >0x40 JTAG> >0x50 JTAG> >0x40 JTAG> >0x80 JTAG> >0x40 JTAG> >0x30 JTAG> >0x40 JTAG> >0x50 JTAG> >0x40 JTAG> >0x40 JTAG> >0x40 JTAG> >0x30 JTAG> >0x40 JTAG> >0x50 JTAG>
 >0x40 JTAG>Found Cortex-M3 r1p1, Little endian. >0x50 JTAG> >0x50 JTAG> >0x40 JTAG> >0x40 JTAG> >0x30 JTAG> >0x30 JTAG> >0x50 JTAG> >0x40 JTAG> >0x80 JTAG> >0x40 JTAG> >0x30 JTAG> >0x40 JTAG> >0x50 JTAG> >0x40 JTAG> >0x40 JTAG> >0x40 JTAG> >0x30 JTAG> >0x40 JTAG> >0x50 JTAG> >0x40 JTAG>TPIU fitted. >0x40 JTAG> >0x40 JTAG> >0x30 JTAG> >0x40 JTAG> >0x50 JTAG> >0x40 JTAG>ETM fitted. >0x40 JTAG> >0x40 JTAG> >0x30 JTAG> >0x40 JTAG> >0x50 JTAG> >0x40 JTAG> >0x40 JTAG> >0x40 JTAG> >0x30 JTAG> >0x40 JTAG>
 >0x50 JTAG> >0x40 JTAG>FPUnit: 6 code (BP) slots and 2 literal slots >0x40 JTAG> >0x40 JTAG> >0x30 JTAG> >0x40 JTAG> >0x50 JTAG> >0x40 JTAG> >0x40 JTAG> >0x40 JTAG> >0x30 JTAG> >0x40 JTAG> >0x50 JTAG> >0x40 JTAG> >0x40 JTAG> >0x40 JTAG> >0x30 JTAG> >0x30 JTAG> >0x50 JTAG> >0x40 JTAG> -- CPU_WriteMem(4 bytes @ 0xE000EDF0) -- CPU_WriteMem(4 bytes @ 0xE000EDFC) -- CPU_WriteMem(4 bytes @ 0xE000ED0C) -- CPU_ReadMem(4 bytes @ 0xE000EDF0) -- CPU_ReadMem(4 bytes @ 0xE000EDF0)
 -- CPU_WriteMem(4 bytes @ 0xE000EDF0) -- CPU_WriteMem(4 bytes @ 0xE000EDFC) -- CPU is running -- CPU_ReadMem(4 bytes @ 0xE000EDF0) >0xD0 JTAG> >0x40 JTAG> >0x30 JTAG> >0x40 JTAG> >0x50 JTAG> >0x40 JTAG> -- CPU_WriteMem(4 bytes @ 0xE000EDFC) -- CPU_WriteMem(4 bytes @ 0xE0001028) -- CPU_WriteMem(4 bytes @ 0xE0001038) -- CPU_WriteMem(4 bytes @ 0xE0001048) -- CPU_WriteMem(4 bytes @ 0xE0001058) -- CPU_WriteMem(4 bytes @ 0xE0002000) (0136ms, 0493ms total)
T1D5C 000:613 JLINK_ReadReg(R15 (PC))  returns 0x08000256 (0001ms, 0494ms total)
T1D5C 000:614 JLINK_ReadReg(XPSR)  returns 0x01000000 (0000ms, 0494ms total)
T1D5C 000:614 JLINK_ReadReg(R0)  returns 0x00000000 (0000ms, 0494ms total)
T1D5C 000:614 JLINK_ReadReg(R1)  returns 0x00000003 (0000ms, 0494ms total)
T1D5C 000:614 JLINK_ReadReg(R2)  returns 0x40022000 (0000ms, 0494ms total)
T1D5C 000:614 JLINK_ReadReg(R3)  returns 0x04C11DB7 (0000ms, 0494ms total)
T1D5C 000:614 JLINK_ReadReg(R4)  returns 0x00000000 (0000ms, 0494ms total)
T1D5C 000:614 JLINK_ReadReg(R5)  returns 0x00000000 (0000ms, 0494ms total)
T1D5C 000:614 JLINK_ReadReg(R6)  returns 0x00000000 (0000ms, 0494ms total)
T1D5C 000:614 JLINK_ReadReg(R7)  returns 0x00000000 (0000ms, 0494ms total)
T1D5C 000:614 JLINK_ReadReg(R8)  returns 0x00000000 (0000ms, 0494ms total)
T1D5C 000:614 JLINK_ReadReg(R9)  returns 0x20000160 (0000ms, 0494ms total)
T1D5C 000:614 JLINK_ReadReg(R10)  returns 0x00000000 (0000ms, 0494ms total)
T1D5C 000:614 JLINK_ReadReg(R11)  returns 0x00000000 (0000ms, 0494ms total)
T1D5C 000:614 JLINK_ReadReg(R12)  returns 0x00000000 (0000ms, 0494ms total)
T1D5C 000:614 JLINK_ReadReg(R13 (SP))  returns 0x20000400 (0000ms, 0494ms total)
T1D5C 000:615 JLINK_ReadReg(R14)  returns 0xFFFFFFFF (0000ms, 0495ms total)
T1D5C 000:615 JLINK_ReadReg(R15 (PC))  returns 0x08000256 (0000ms, 0495ms total)
T1D5C 000:615 JLINK_ReadReg(XPSR)  returns 0x01000000 (0000ms, 0495ms total)
T1D5C 000:615 JLINK_ReadReg(MSP)  returns 0x20000400 (0000ms, 0495ms total)
T1D5C 000:615 JLINK_ReadReg(PSP)  returns 0x20000800 (0000ms, 0495ms total)
T1D5C 000:615 JLINK_ReadReg(BASEPRI)  returns 0x00000000 (0000ms, 0495ms total)
T1D5C 000:615 JLINK_ReadReg(CONTROL)  returns 0x00000000 (0000ms, 0495ms total)
T1D5C 000:615 JLINK_ReadReg(FAULTMASK)  returns 0x00000000 (0000ms, 0495ms total)
T1D5C 000:615 JLINK_ReadReg(BASEPRI_MAX)  returns 0x00000000 (0000ms, 0495ms total)
T1D5C 000:615 JLINK_ReadMemU32(0xE0001004, 0x0001 Items, ...) -- CPU_ReadMem(4 bytes @ 0xE0001004) -- Data:  8A 08 00 00  returns 0x01 (0001ms, 0496ms total)
T1D5C 000:617 JLINK_ReadMem (0x08000256, 0x0002 Bytes, ...) -- CPU_ReadMem(64 bytes @ 0x08000240) -- Updating C cache (64 bytes @ 0x08000240) -- Read from C cache (2 bytes @ 0x08000256) -- Data:  0B 48  returns 0x00 (0001ms, 0497ms total)
T1D5C 000:618 JLINK_ReadMem (0x08000258, 0x003C Bytes, ...) -- CPU_ReadMem(64 bytes @ 0x08000280) -- Updating C cache (64 bytes @ 0x08000280) -- Read from C cache (60 bytes @ 0x08000258) -- Data:  80 47 0B 49 81 F3 08 88 0A 48 00 47 FE E7 FE E7 ...  returns 0x00 (0002ms, 0499ms total)
T2254 001:473 JLINK_SetBPEx(Addr = 0x08000824, Type = 0xFFFFFFF2)  returns 0x00000001 (0001ms, 0500ms total)
T2254 001:474 JLINK_Go() -- CPU_WriteMem(4 bytes @ 0xE0002008) -- CPU_WriteMem(4 bytes @ 0xE000200C) -- CPU_WriteMem(4 bytes @ 0xE0002010) -- CPU_WriteMem(4 bytes @ 0xE0002014) -- CPU_WriteMem(4 bytes @ 0xE0002018) -- CPU_WriteMem(4 bytes @ 0xE000201C) (0008ms, 0508ms total)
T2254 001:582 JLINK_IsHalted()  returns TRUE (0004ms, 0512ms total)
T2254 001:586 JLINK_Halt()  returns 0x00 (0000ms, 0508ms total)
T2254 001:586 JLINK_IsHalted()  returns TRUE (0000ms, 0508ms total)
T2254 001:586 JLINK_IsHalted()  returns TRUE (0000ms, 0508ms total)
T2254 001:586 JLINK_IsHalted()  returns TRUE (0000ms, 0508ms total)
T2254 001:586 JLINK_ReadReg(R15 (PC))  returns 0x08000824 (0000ms, 0508ms total)
T2254 001:586 JLINK_ReadReg(XPSR)  returns 0x61000000 (0000ms, 0508ms total)
T2254 001:586 JLINK_ClrBPEx(BPHandle = 0x00000001)  returns 0x00 (0000ms, 0508ms total)
T2254 001:586 JLINK_ReadMemU32(0xE000ED30, 0x0001 Items, ...) -- CPU_ReadMem(4 bytes @ 0xE000ED30) -- Data:  03 00 00 00  returns 0x01 (0001ms, 0509ms total)
T2254 001:587 JLINK_ReadMemU32(0xE0001028, 0x0001 Items, ...) -- CPU_ReadMem(4 bytes @ 0xE0001028) -- Data:  00 00 00 00  returns 0x01 (0001ms, 0510ms total)
T2254 001:588 JLINK_ReadMemU32(0xE0001038, 0x0001 Items, ...) -- CPU_ReadMem(4 bytes @ 0xE0001038) -- Data:  00 02 00 00  returns 0x01 (0001ms, 0511ms total)
T2254 001:589 JLINK_ReadMemU32(0xE0001048, 0x0001 Items, ...) -- CPU_ReadMem(4 bytes @ 0xE0001048) -- Data:  00 00 00 00  returns 0x01 (0001ms, 0512ms total)
T2254 001:590 JLINK_ReadMemU32(0xE0001058, 0x0001 Items, ...) -- CPU_ReadMem(4 bytes @ 0xE0001058) -- Data:  00 00 00 00  returns 0x01 (0001ms, 0513ms total)
T1D5C 001:592 JLINK_ReadReg(R0)  returns 0x200002E8 (0000ms, 0513ms total)
T1D5C 001:592 JLINK_ReadReg(R1)  returns 0x200002E8 (0000ms, 0513ms total)
T1D5C 001:592 JLINK_ReadReg(R2)  returns 0x200002E8 (0000ms, 0513ms total)
T1D5C 001:592 JLINK_ReadReg(R3)  returns 0x200002E8 (0000ms, 0513ms total)
T1D5C 001:592 JLINK_ReadReg(R4)  returns 0x00000000 (0000ms, 0513ms total)
T1D5C 001:592 JLINK_ReadReg(R5)  returns 0x20000288 (0000ms, 0513ms total)
T1D5C 001:592 JLINK_ReadReg(R6)  returns 0x00000000 (0000ms, 0513ms total)
T1D5C 001:592 JLINK_ReadReg(R7)  returns 0x00000000 (0000ms, 0513ms total)
T1D5C 001:592 JLINK_ReadReg(R8)  returns 0x00000000 (0000ms, 0513ms total)
T1D5C 001:592 JLINK_ReadReg(R9)  returns 0x20000160 (0000ms, 0513ms total)
T1D5C 001:592 JLINK_ReadReg(R10)  returns 0x080095E0 (0000ms, 0513ms total)
T1D5C 001:592 JLINK_ReadReg(R11)  returns 0x00000000 (0000ms, 0513ms total)
T1D5C 001:592 JLINK_ReadReg(R12)  returns 0x200002C8 (0000ms, 0513ms total)
T1D5C 001:592 JLINK_ReadReg(R13 (SP))  returns 0x20000AE8 (0000ms, 0513ms total)
T1D5C 001:592 JLINK_ReadReg(R14)  returns 0x08000237 (0000ms, 0513ms total)
T1D5C 001:592 JLINK_ReadReg(R15 (PC))  returns 0x08000824 (0000ms, 0513ms total)
T1D5C 001:592 JLINK_ReadReg(XPSR)  returns 0x61000000 (0000ms, 0513ms total)
T1D5C 001:592 JLINK_ReadReg(MSP)  returns 0x20000AE8 (0000ms, 0513ms total)
T1D5C 001:592 JLINK_ReadReg(PSP)  returns 0x20000800 (0000ms, 0513ms total)
T1D5C 001:592 JLINK_ReadReg(BASEPRI)  returns 0x00000000 (0000ms, 0513ms total)
T1D5C 001:592 JLINK_ReadReg(CONTROL)  returns 0x00000000 (0000ms, 0513ms total)
T1D5C 001:592 JLINK_ReadReg(FAULTMASK)  returns 0x00000000 (0000ms, 0513ms total)
T1D5C 001:592 JLINK_ReadReg(BASEPRI_MAX)  returns 0x00000000 (0000ms, 0513ms total)
T1D5C 001:595 JLINK_ReadMemU32(0xE0001004, 0x0001 Items, ...) -- CPU_ReadMem(4 bytes @ 0xE0001004) -- Data:  0F 18 00 00  returns 0x01 (0002ms, 0515ms total)
T1D5C 001:693 JLINK_ReadMem (0x08000824, 0x003C Bytes, ...) -- CPU_ReadMem(128 bytes @ 0x08000800) -- Updating C cache (128 bytes @ 0x08000800) -- Read from C cache (60 bytes @ 0x08000824) -- Data:  1F B5 09 20 FF F7 C9 FE 48 20 FF F7 35 FD 4F F4 ...  returns 0x00 (0003ms, 0518ms total)
T2254 005:546 JLINK_Step() -- Read from C cache (2 bytes @ 0x08000824) -- CPU_WriteMem(24 bytes @ 0x20000AD0) -- Simulated  returns 0x00 (0003ms, 0521ms total)
T2254 005:549 JLINK_ReadReg(R15 (PC))  returns 0x08000826 (0000ms, 0521ms total)
T2254 005:549 JLINK_ReadReg(XPSR)  returns 0x61000000 (0000ms, 0521ms total)
T1D5C 005:552 JLINK_ReadReg(R0)  returns 0x200002E8 (0000ms, 0521ms total)
T1D5C 005:552 JLINK_ReadReg(R1)  returns 0x200002E8 (0000ms, 0521ms total)
T1D5C 005:552 JLINK_ReadReg(R2)  returns 0x200002E8 (0000ms, 0521ms total)
T1D5C 005:552 JLINK_ReadReg(R3)  returns 0x200002E8 (0000ms, 0521ms total)
T1D5C 005:552 JLINK_ReadReg(R4)  returns 0x00000000 (0000ms, 0521ms total)
T1D5C 005:552 JLINK_ReadReg(R5)  returns 0x20000288 (0000ms, 0521ms total)
T1D5C 005:552 JLINK_ReadReg(R6)  returns 0x00000000 (0000ms, 0521ms total)
T1D5C 005:552 JLINK_ReadReg(R7)  returns 0x00000000 (0000ms, 0521ms total)
T1D5C 005:552 JLINK_ReadReg(R8)  returns 0x00000000 (0000ms, 0521ms total)
T1D5C 005:552 JLINK_ReadReg(R9)  returns 0x20000160 (0000ms, 0521ms total)
T1D5C 005:552 JLINK_ReadReg(R10)  returns 0x080095E0 (0000ms, 0521ms total)
T1D5C 005:552 JLINK_ReadReg(R11)  returns 0x00000000 (0000ms, 0521ms total)
T1D5C 005:552 JLINK_ReadReg(R12)  returns 0x200002C8 (0000ms, 0521ms total)
T1D5C 005:552 JLINK_ReadReg(R13 (SP))  returns 0x20000AD0 (0000ms, 0521ms total)
T1D5C 005:552 JLINK_ReadReg(R14)  returns 0x08000237 (0000ms, 0521ms total)
T1D5C 005:552 JLINK_ReadReg(R15 (PC))  returns 0x08000826 (0000ms, 0521ms total)
T1D5C 005:552 JLINK_ReadReg(XPSR)  returns 0x61000000 (0000ms, 0521ms total)
T1D5C 005:552 JLINK_ReadReg(MSP)  returns 0x20000AD0 (0000ms, 0521ms total)
T1D5C 005:552 JLINK_ReadReg(PSP)  returns 0x20000800 (0000ms, 0521ms total)
T1D5C 005:552 JLINK_ReadReg(BASEPRI)  returns 0x00000000 (0000ms, 0521ms total)
T1D5C 005:552 JLINK_ReadReg(CONTROL)  returns 0x00000000 (0000ms, 0521ms total)
T1D5C 005:552 JLINK_ReadReg(FAULTMASK)  returns 0x00000000 (0000ms, 0521ms total)
T1D5C 005:552 JLINK_ReadReg(BASEPRI_MAX)  returns 0x00000000 (0000ms, 0521ms total)
T1D5C 005:552 JLINK_ReadMem (0x20000AE4, 0x0004 Bytes, ...) -- CPU_ReadMem(64 bytes @ 0x20000AC0) -- Updating C cache (64 bytes @ 0x20000AC0) -- Read from C cache (4 bytes @ 0x20000AE4) -- Data:  37 02 00 08  returns 0x00 (0002ms, 0523ms total)
T1D5C 005:554 JLINK_ReadMemU32(0xE0001004, 0x0001 Items, ...) -- Data:  0F 18 00 00  returns 0x01 (0000ms, 0523ms total)
T2254 006:259 JLINK_ReadMem (0x08000826, 0x0002 Bytes, ...) -- Read from C cache (2 bytes @ 0x08000826) -- Data:  09 20  returns 0x00 (0000ms, 0523ms total)
T2254 006:259 JLINK_ReadMem (0x08000828, 0x003C Bytes, ...) -- Read from C cache (60 bytes @ 0x08000828) -- Data:  FF F7 C9 FE 48 20 FF F7 35 FD 4F F4 E1 31 48 20 ...  returns 0x00 (0000ms, 0523ms total)
T2254 006:259 JLINK_Step() -- Read from C cache (2 bytes @ 0x08000826) -- Simulated  returns 0x00 (0002ms, 0525ms total)
T2254 006:261 JLINK_ReadReg(R15 (PC))  returns 0x08000828 (0000ms, 0525ms total)
T2254 006:261 JLINK_ReadReg(XPSR)  returns 0x21000000 (0000ms, 0525ms total)
T2254 006:261 JLINK_SetBPEx(Addr = 0x0800082C, Type = 0xFFFFFFF2)  returns 0x00000002 (0000ms, 0525ms total)
T2254 006:261 JLINK_Go() -- CPU_WriteMem(4 bytes @ 0xE0002008) (0005ms, 0530ms total)
T2254 006:366 JLINK_IsHalted()  returns TRUE (0006ms, 0536ms total)
T2254 006:372 JLINK_Halt()  returns 0x00 (0000ms, 0530ms total)
T2254 006:372 JLINK_IsHalted()  returns TRUE (0000ms, 0530ms total)
T2254 006:372 JLINK_IsHalted()  returns TRUE (0000ms, 0530ms total)
T2254 006:372 JLINK_IsHalted()  returns TRUE (0000ms, 0530ms total)
T2254 006:372 JLINK_ReadReg(R15 (PC))  returns 0x0800082C (0000ms, 0530ms total)
T2254 006:372 JLINK_ReadReg(XPSR)  returns 0x61000000 (0000ms, 0530ms total)
T2254 006:372 JLINK_ClrBPEx(BPHandle = 0x00000002)  returns 0x00 (0000ms, 0530ms total)
T2254 006:372 JLINK_ReadMemU32(0xE000ED30, 0x0001 Items, ...) -- CPU_ReadMem(4 bytes @ 0xE000ED30) -- Data:  03 00 00 00  returns 0x01 (0002ms, 0532ms total)
T2254 006:374 JLINK_ReadMemU32(0xE0001028, 0x0001 Items, ...) -- CPU_ReadMem(4 bytes @ 0xE0001028) -- Data:  00 00 00 00  returns 0x01 (0001ms, 0533ms total)
T2254 006:375 JLINK_ReadMemU32(0xE0001038, 0x0001 Items, ...) -- CPU_ReadMem(4 bytes @ 0xE0001038) -- Data:  00 02 00 00  returns 0x01 (0001ms, 0534ms total)
T2254 006:376 JLINK_ReadMemU32(0xE0001048, 0x0001 Items, ...) -- CPU_ReadMem(4 bytes @ 0xE0001048) -- Data:  00 00 00 00  returns 0x01 (0001ms, 0535ms total)
T2254 006:377 JLINK_ReadMemU32(0xE0001058, 0x0001 Items, ...) -- CPU_ReadMem(4 bytes @ 0xE0001058) -- Data:  00 00 00 00  returns 0x01 (0001ms, 0536ms total)
T1D5C 006:379 JLINK_ReadReg(R0)  returns 0x001D040A (0000ms, 0536ms total)
T1D5C 006:379 JLINK_ReadReg(R1)  returns 0x40021000 (0000ms, 0536ms total)
T1D5C 006:379 JLINK_ReadReg(R2)  returns 0x08000000 (0000ms, 0536ms total)
T1D5C 006:379 JLINK_ReadReg(R3)  returns 0xE000ED08 (0000ms, 0536ms total)
T1D5C 006:379 JLINK_ReadReg(R4)  returns 0x00000000 (0000ms, 0536ms total)
T1D5C 006:379 JLINK_ReadReg(R5)  returns 0x20000288 (0000ms, 0536ms total)
T1D5C 006:379 JLINK_ReadReg(R6)  returns 0x00000000 (0000ms, 0536ms total)
T1D5C 006:379 JLINK_ReadReg(R7)  returns 0x00000000 (0000ms, 0536ms total)
T1D5C 006:379 JLINK_ReadReg(R8)  returns 0x00000000 (0000ms, 0536ms total)
T1D5C 006:379 JLINK_ReadReg(R9)  returns 0x20000160 (0000ms, 0536ms total)
T1D5C 006:379 JLINK_ReadReg(R10)  returns 0x080095E0 (0000ms, 0536ms total)
T1D5C 006:379 JLINK_ReadReg(R11)  returns 0x00000000 (0000ms, 0536ms total)
T1D5C 006:380 JLINK_ReadReg(R12)  returns 0x200002C8 (0000ms, 0537ms total)
T1D5C 006:380 JLINK_ReadReg(R13 (SP))  returns 0x20000AD0 (0000ms, 0537ms total)
T1D5C 006:380 JLINK_ReadReg(R14)  returns 0x0800054B (0000ms, 0537ms total)
T1D5C 006:380 JLINK_ReadReg(R15 (PC))  returns 0x0800082C (0000ms, 0537ms total)
T1D5C 006:380 JLINK_ReadReg(XPSR)  returns 0x61000000 (0000ms, 0537ms total)
T1D5C 006:380 JLINK_ReadReg(MSP)  returns 0x20000AD0 (0000ms, 0537ms total)
T1D5C 006:380 JLINK_ReadReg(PSP)  returns 0x20000800 (0000ms, 0537ms total)
T1D5C 006:380 JLINK_ReadReg(BASEPRI)  returns 0x00000000 (0000ms, 0537ms total)
T1D5C 006:380 JLINK_ReadReg(CONTROL)  returns 0x00000000 (0000ms, 0537ms total)
T1D5C 006:380 JLINK_ReadReg(FAULTMASK)  returns 0x00000000 (0000ms, 0537ms total)
T1D5C 006:380 JLINK_ReadReg(BASEPRI_MAX)  returns 0x00000000 (0000ms, 0537ms total)
T1D5C 006:380 JLINK_ReadMem (0x20000AE4, 0x0004 Bytes, ...) -- CPU_ReadMem(64 bytes @ 0x20000AC0) -- Updating C cache (64 bytes @ 0x20000AC0) -- Read from C cache (4 bytes @ 0x20000AE4) -- Data:  37 02 00 08  returns 0x00 (0002ms, 0539ms total)
T1D5C 006:382 JLINK_ReadMemU32(0xE0001004, 0x0001 Items, ...) -- CPU_ReadMem(4 bytes @ 0xE0001004) -- Data:  64 2C 00 00  returns 0x01 (0001ms, 0540ms total)
T1D5C 006:393 JLINK_ReadMem (0x08000824, 0x003C Bytes, ...) -- CPU_ReadMem(128 bytes @ 0x08000800) -- Updating C cache (128 bytes @ 0x08000800) -- Read from C cache (60 bytes @ 0x08000824) -- Data:  1F B5 09 20 FF F7 C9 FE 48 20 FF F7 35 FD 4F F4 ...  returns 0x00 (0003ms, 0543ms total)
T2254 006:971 JLINK_Step() -- Read from C cache (2 bytes @ 0x0800082C) -- Simulated  returns 0x00 (0002ms, 0545ms total)
T2254 006:973 JLINK_ReadReg(R15 (PC))  returns 0x0800082E (0000ms, 0545ms total)
T2254 006:973 JLINK_ReadReg(XPSR)  returns 0x21000000 (0000ms, 0545ms total)
T2254 006:973 JLINK_SetBPEx(Addr = 0x08000832, Type = 0xFFFFFFF2)  returns 0x00000003 (0000ms, 0545ms total)
T2254 006:973 JLINK_Go() -- CPU_WriteMem(4 bytes @ 0xE0002008) (0004ms, 0549ms total)
T2254 007:077 JLINK_IsHalted()  returns TRUE (0006ms, 0555ms total)
T2254 007:083 JLINK_Halt()  returns 0x00 (0000ms, 0549ms total)
T2254 007:083 JLINK_IsHalted()  returns TRUE (0000ms, 0549ms total)
T2254 007:083 JLINK_IsHalted()  returns TRUE (0000ms, 0549ms total)
T2254 007:083 JLINK_IsHalted()  returns TRUE (0000ms, 0549ms total)
T2254 007:083 JLINK_ReadReg(R15 (PC))  returns 0x08000832 (0000ms, 0549ms total)
T2254 007:083 JLINK_ReadReg(XPSR)  returns 0x21000000 (0000ms, 0549ms total)
T2254 007:083 JLINK_ClrBPEx(BPHandle = 0x00000003)  returns 0x00 (0000ms, 0549ms total)
T2254 007:083 JLINK_ReadMemU32(0xE000ED30, 0x0001 Items, ...) -- CPU_ReadMem(4 bytes @ 0xE000ED30) -- Data:  03 00 00 00  returns 0x01 (0002ms, 0551ms total)
T2254 007:085 JLINK_ReadMemU32(0xE0001028, 0x0001 Items, ...) -- CPU_ReadMem(4 bytes @ 0xE0001028) -- Data:  00 00 00 00  returns 0x01 (0001ms, 0552ms total)
T2254 007:086 JLINK_ReadMemU32(0xE0001038, 0x0001 Items, ...) -- CPU_ReadMem(4 bytes @ 0xE0001038) -- Data:  00 02 00 00  returns 0x01 (0001ms, 0553ms total)
T2254 007:087 JLINK_ReadMemU32(0xE0001048, 0x0001 Items, ...) -- CPU_ReadMem(4 bytes @ 0xE0001048) -- Data:  00 00 00 00  returns 0x01 (0001ms, 0554ms total)
T2254 007:088 JLINK_ReadMemU32(0xE0001058, 0x0001 Items, ...) -- CPU_ReadMem(4 bytes @ 0xE0001058) -- Data:  00 00 00 00  returns 0x01 (0001ms, 0555ms total)
T1D5C 007:090 JLINK_ReadReg(R0)  returns 0x00000048 (0000ms, 0555ms total)
T1D5C 007:090 JLINK_ReadReg(R1)  returns 0x00002328 (0000ms, 0555ms total)
T1D5C 007:090 JLINK_ReadReg(R2)  returns 0x20000002 (0000ms, 0555ms total)
T1D5C 007:090 JLINK_ReadReg(R3)  returns 0x20000000 (0000ms, 0555ms total)
T1D5C 007:090 JLINK_ReadReg(R4)  returns 0x00000000 (0000ms, 0555ms total)
T1D5C 007:090 JLINK_ReadReg(R5)  returns 0x20000288 (0000ms, 0555ms total)
T1D5C 007:090 JLINK_ReadReg(R6)  returns 0x00000000 (0000ms, 0555ms total)
T1D5C 007:090 JLINK_ReadReg(R7)  returns 0x00000000 (0000ms, 0555ms total)
T1D5C 007:090 JLINK_ReadReg(R8)  returns 0x00000000 (0000ms, 0555ms total)
T1D5C 007:090 JLINK_ReadReg(R9)  returns 0x20000160 (0000ms, 0555ms total)
T1D5C 007:090 JLINK_ReadReg(R10)  returns 0x080095E0 (0000ms, 0555ms total)
T1D5C 007:090 JLINK_ReadReg(R11)  returns 0x00000000 (0000ms, 0555ms total)
T1D5C 007:090 JLINK_ReadReg(R12)  returns 0x200002C8 (0001ms, 0556ms total)
T1D5C 007:091 JLINK_ReadReg(R13 (SP))  returns 0x20000AD0 (0000ms, 0556ms total)
T1D5C 007:091 JLINK_ReadReg(R14)  returns 0x08000833 (0000ms, 0556ms total)
T1D5C 007:091 JLINK_ReadReg(R15 (PC))  returns 0x08000832 (0000ms, 0556ms total)
T1D5C 007:091 JLINK_ReadReg(XPSR)  returns 0x21000000 (0000ms, 0556ms total)
T1D5C 007:091 JLINK_ReadReg(MSP)  returns 0x20000AD0 (0000ms, 0556ms total)
T1D5C 007:091 JLINK_ReadReg(PSP)  returns 0x20000800 (0000ms, 0556ms total)
T1D5C 007:091 JLINK_ReadReg(BASEPRI)  returns 0x00000000 (0000ms, 0556ms total)
T1D5C 007:091 JLINK_ReadReg(CONTROL)  returns 0x00000000 (0000ms, 0556ms total)
T1D5C 007:091 JLINK_ReadReg(FAULTMASK)  returns 0x00000000 (0000ms, 0556ms total)
T1D5C 007:091 JLINK_ReadReg(BASEPRI_MAX)  returns 0x00000000 (0000ms, 0556ms total)
T1D5C 007:091 JLINK_ReadMem (0x20000AE4, 0x0004 Bytes, ...) -- CPU_ReadMem(64 bytes @ 0x20000AC0) -- Updating C cache (64 bytes @ 0x20000AC0) -- Read from C cache (4 bytes @ 0x20000AE4) -- Data:  37 02 00 08  returns 0x00 (0002ms, 0558ms total)
T1D5C 007:093 JLINK_ReadMemU32(0xE0001004, 0x0001 Items, ...) -- CPU_ReadMem(4 bytes @ 0xE0001004) -- Data:  8F 2C 00 00  returns 0x01 (0001ms, 0559ms total)
T1D5C 007:100 JLINK_ReadMem (0x08000836, 0x0002 Bytes, ...) -- CPU_ReadMem(64 bytes @ 0x08000800) -- Updating C cache (64 bytes @ 0x08000800) -- Read from C cache (2 bytes @ 0x08000836) -- Data:  48 20  returns 0x00 (0002ms, 0561ms total)
T1D5C 007:102 JLINK_ReadMem (0x08000838, 0x003C Bytes, ...) -- CPU_ReadMem(64 bytes @ 0x08000840) -- Updating C cache (64 bytes @ 0x08000840) -- Read from C cache (60 bytes @ 0x08000838) -- Data:  FF F7 74 FF 48 20 00 F0 05 FC 00 F0 3B F8 00 F0 ...  returns 0x00 (0002ms, 0563ms total)
T1D5C 007:110 JLINK_ReadMem (0x08000824, 0x003C Bytes, ...) -- Read from C cache (60 bytes @ 0x08000824) -- Data:  1F B5 09 20 FF F7 C9 FE 48 20 FF F7 35 FD 4F F4 ...  returns 0x00 (0000ms, 0563ms total)
T2254 007:769 JLINK_Step() -- Read from C cache (2 bytes @ 0x08000832) -- Read from C cache (2 bytes @ 0x08000834) -- Simulated  returns 0x00 (0001ms, 0564ms total)
T2254 007:770 JLINK_ReadReg(R15 (PC))  returns 0x08000836 (0000ms, 0564ms total)
T2254 007:770 JLINK_ReadReg(XPSR)  returns 0x21000000 (0000ms, 0564ms total)
T2254 007:770 JLINK_Step() -- Read from C cache (2 bytes @ 0x08000836) -- Simulated  returns 0x00 (0000ms, 0564ms total)
T2254 007:770 JLINK_ReadReg(R15 (PC))  returns 0x08000838 (0000ms, 0564ms total)
T2254 007:770 JLINK_ReadReg(XPSR)  returns 0x21000000 (0000ms, 0564ms total)
T2254 007:770 JLINK_SetBPEx(Addr = 0x0800083C, Type = 0xFFFFFFF2)  returns 0x00000004 (0000ms, 0564ms total)
T2254 007:770 JLINK_Go() -- CPU_WriteMem(4 bytes @ 0xE0002008) (0003ms, 0567ms total)
T2254 007:873 JLINK_IsHalted()  returns TRUE (0006ms, 0573ms total)
T2254 007:879 JLINK_Halt()  returns 0x00 (0000ms, 0567ms total)
T2254 007:879 JLINK_IsHalted()  returns TRUE (0000ms, 0567ms total)
T2254 007:879 JLINK_IsHalted()  returns TRUE (0000ms, 0567ms total)
T2254 007:879 JLINK_IsHalted()  returns TRUE (0000ms, 0567ms total)
T2254 007:879 JLINK_ReadReg(R15 (PC))  returns 0x0800083C (0000ms, 0567ms total)
T2254 007:879 JLINK_ReadReg(XPSR)  returns 0x21000000 (0000ms, 0567ms total)
T2254 007:879 JLINK_ClrBPEx(BPHandle = 0x00000004)  returns 0x00 (0000ms, 0567ms total)
T2254 007:879 JLINK_ReadMemU32(0xE000ED30, 0x0001 Items, ...) -- CPU_ReadMem(4 bytes @ 0xE000ED30) -- Data:  03 00 00 00  returns 0x01 (0002ms, 0569ms total)
T2254 007:881 JLINK_ReadMemU32(0xE0001028, 0x0001 Items, ...) -- CPU_ReadMem(4 bytes @ 0xE0001028) -- Data:  00 00 00 00  returns 0x01 (0001ms, 0570ms total)
T2254 007:882 JLINK_ReadMemU32(0xE0001038, 0x0001 Items, ...) -- CPU_ReadMem(4 bytes @ 0xE0001038) -- Data:  00 02 00 00  returns 0x01 (0001ms, 0571ms total)
T2254 007:883 JLINK_ReadMemU32(0xE0001048, 0x0001 Items, ...) -- CPU_ReadMem(4 bytes @ 0xE0001048) -- Data:  00 00 00 00  returns 0x01 (0001ms, 0572ms total)
T2254 007:884 JLINK_ReadMemU32(0xE0001058, 0x0001 Items, ...) -- CPU_ReadMem(4 bytes @ 0xE0001058) -- Data:  00 00 00 00  returns 0x01 (0001ms, 0573ms total)
T1D5C 007:889 JLINK_ReadReg(R0)  returns 0x0000F000 (0000ms, 0573ms total)
T1D5C 007:889 JLINK_ReadReg(R1)  returns 0xE000E400 (0000ms, 0573ms total)
T1D5C 007:889 JLINK_ReadReg(R2)  returns 0x00000020 (0000ms, 0573ms total)
T1D5C 007:889 JLINK_ReadReg(R3)  returns 0xE000ED0C (0000ms, 0573ms total)
T1D5C 007:889 JLINK_ReadReg(R4)  returns 0x00000000 (0000ms, 0573ms total)
T1D5C 007:889 JLINK_ReadReg(R5)  returns 0x20000288 (0000ms, 0573ms total)
T1D5C 007:889 JLINK_ReadReg(R6)  returns 0x00000000 (0000ms, 0573ms total)
T1D5C 007:889 JLINK_ReadReg(R7)  returns 0x00000000 (0000ms, 0573ms total)
T1D5C 007:889 JLINK_ReadReg(R8)  returns 0x00000000 (0000ms, 0573ms total)
T1D5C 007:889 JLINK_ReadReg(R9)  returns 0x20000160 (0000ms, 0573ms total)
T1D5C 007:889 JLINK_ReadReg(R10)  returns 0x080095E0 (0000ms, 0573ms total)
T1D5C 007:889 JLINK_ReadReg(R11)  returns 0x00000000 (0001ms, 0574ms total)
T1D5C 007:890 JLINK_ReadReg(R12)  returns 0x200002C8 (0000ms, 0574ms total)
T1D5C 007:890 JLINK_ReadReg(R13 (SP))  returns 0x20000AD0 (0000ms, 0574ms total)
T1D5C 007:890 JLINK_ReadReg(R14)  returns 0x080003CB (0000ms, 0574ms total)
T1D5C 007:890 JLINK_ReadReg(R15 (PC))  returns 0x0800083C (0000ms, 0574ms total)
T1D5C 007:890 JLINK_ReadReg(XPSR)  returns 0x21000000 (0000ms, 0574ms total)
T1D5C 007:890 JLINK_ReadReg(MSP)  returns 0x20000AD0 (0000ms, 0574ms total)
T1D5C 007:890 JLINK_ReadReg(PSP)  returns 0x20000800 (0000ms, 0574ms total)
T1D5C 007:890 JLINK_ReadReg(BASEPRI)  returns 0x00000000 (0000ms, 0574ms total)
T1D5C 007:890 JLINK_ReadReg(CONTROL)  returns 0x00000000 (0000ms, 0574ms total)
T1D5C 007:890 JLINK_ReadReg(FAULTMASK)  returns 0x00000000 (0000ms, 0574ms total)
T1D5C 007:890 JLINK_ReadReg(BASEPRI_MAX)  returns 0x00000000 (0000ms, 0574ms total)
T1D5C 007:890 JLINK_ReadMem (0x20000AE4, 0x0004 Bytes, ...) -- CPU_ReadMem(64 bytes @ 0x20000AC0) -- Updating C cache (64 bytes @ 0x20000AC0) -- Read from C cache (4 bytes @ 0x20000AE4) -- Data:  37 02 00 08  returns 0x00 (0002ms, 0576ms total)
T1D5C 007:892 JLINK_ReadMemU32(0xE0001004, 0x0001 Items, ...) -- CPU_ReadMem(4 bytes @ 0xE0001004) -- Data:  1E 2F 00 00  returns 0x01 (0001ms, 0577ms total)
T1D5C 007:904 JLINK_ReadMem (0x0800083C, 0x003C Bytes, ...) -- CPU_ReadMem(128 bytes @ 0x08000800) -- Updating C cache (128 bytes @ 0x08000800) -- Read from C cache (60 bytes @ 0x0800083C) -- Data:  48 20 00 F0 05 FC 00 F0 3B F8 00 F0 79 F8 01 F0 ...  returns 0x00 (0003ms, 0580ms total)
T2254 008:717 JLINK_Step() -- Read from C cache (2 bytes @ 0x0800083C) -- Simulated  returns 0x00 (0002ms, 0582ms total)
T2254 008:719 JLINK_ReadReg(R15 (PC))  returns 0x0800083E (0000ms, 0582ms total)
T2254 008:719 JLINK_ReadReg(XPSR)  returns 0x21000000 (0000ms, 0582ms total)
T2254 008:719 JLINK_SetBPEx(Addr = 0x08000842, Type = 0xFFFFFFF2)  returns 0x00000005 (0000ms, 0582ms total)
T2254 008:719 JLINK_Go() -- CPU_WriteMem(4 bytes @ 0xE0002008) (0004ms, 0586ms total)
T2254 008:823 JLINK_IsHalted()  returns TRUE (0006ms, 0592ms total)
T2254 008:829 JLINK_Halt()  returns 0x00 (0000ms, 0586ms total)
T2254 008:829 JLINK_IsHalted()  returns TRUE (0000ms, 0586ms total)
T2254 008:829 JLINK_IsHalted()  returns TRUE (0000ms, 0586ms total)
T2254 008:829 JLINK_IsHalted()  returns TRUE (0000ms, 0586ms total)
T2254 008:829 JLINK_ReadReg(R15 (PC))  returns 0x08000842 (0000ms, 0586ms total)
T2254 008:829 JLINK_ReadReg(XPSR)  returns 0x81000000 (0000ms, 0586ms total)
T2254 008:829 JLINK_ClrBPEx(BPHandle = 0x00000005)  returns 0x00 (0000ms, 0586ms total)
T2254 008:829 JLINK_ReadMemU32(0xE000ED30, 0x0001 Items, ...) -- CPU_ReadMem(4 bytes @ 0xE000ED30) -- Data:  03 00 00 00  returns 0x01 (0002ms, 0588ms total)
T2254 008:831 JLINK_ReadMemU32(0xE0001028, 0x0001 Items, ...) -- CPU_ReadMem(4 bytes @ 0xE0001028) -- Data:  00 00 00 00  returns 0x01 (0001ms, 0589ms total)
T2254 008:832 JLINK_ReadMemU32(0xE0001038, 0x0001 Items, ...) -- CPU_ReadMem(4 bytes @ 0xE0001038) -- Data:  00 02 00 00  returns 0x01 (0001ms, 0590ms total)
T2254 008:833 JLINK_ReadMemU32(0xE0001048, 0x0001 Items, ...) -- CPU_ReadMem(4 bytes @ 0xE0001048) -- Data:  00 00 00 00  returns 0x01 (0001ms, 0591ms total)
T2254 008:834 JLINK_ReadMemU32(0xE0001058, 0x0001 Items, ...) -- CPU_ReadMem(4 bytes @ 0xE0001058) -- Data:  00 00 00 00  returns 0x01 (0001ms, 0592ms total)
T1D5C 008:836 JLINK_ReadReg(R0)  returns 0x00000001 (0000ms, 0592ms total)
T1D5C 008:836 JLINK_ReadReg(R1)  returns 0x2000004C (0000ms, 0592ms total)
T1D5C 008:836 JLINK_ReadReg(R2)  returns 0x00000500 (0000ms, 0592ms total)
T1D5C 008:836 JLINK_ReadReg(R3)  returns 0xE000ED0C (0000ms, 0592ms total)
T1D5C 008:836 JLINK_ReadReg(R4)  returns 0x00000000 (0000ms, 0592ms total)
T1D5C 008:836 JLINK_ReadReg(R5)  returns 0x20000288 (0000ms, 0592ms total)
T1D5C 008:836 JLINK_ReadReg(R6)  returns 0x00000000 (0000ms, 0592ms total)
T1D5C 008:836 JLINK_ReadReg(R7)  returns 0x00000000 (0000ms, 0592ms total)
T1D5C 008:836 JLINK_ReadReg(R8)  returns 0x00000000 (0000ms, 0592ms total)
T1D5C 008:836 JLINK_ReadReg(R9)  returns 0x20000160 (0000ms, 0592ms total)
T1D5C 008:836 JLINK_ReadReg(R10)  returns 0x080095E0 (0000ms, 0592ms total)
T1D5C 008:836 JLINK_ReadReg(R11)  returns 0x00000000 (0000ms, 0592ms total)
T1D5C 008:836 JLINK_ReadReg(R12)  returns 0x200002C8 (0000ms, 0592ms total)
T1D5C 008:836 JLINK_ReadReg(R13 (SP))  returns 0x20000AD0 (0000ms, 0592ms total)
T1D5C 008:836 JLINK_ReadReg(R14)  returns 0x080003CB (0001ms, 0593ms total)
T1D5C 008:837 JLINK_ReadReg(R15 (PC))  returns 0x08000842 (0000ms, 0593ms total)
T1D5C 008:837 JLINK_ReadReg(XPSR)  returns 0x81000000 (0000ms, 0593ms total)
T1D5C 008:837 JLINK_ReadReg(MSP)  returns 0x20000AD0 (0000ms, 0593ms total)
T1D5C 008:837 JLINK_ReadReg(PSP)  returns 0x20000800 (0000ms, 0593ms total)
T1D5C 008:837 JLINK_ReadReg(BASEPRI)  returns 0x00000000 (0000ms, 0593ms total)
T1D5C 008:837 JLINK_ReadReg(CONTROL)  returns 0x00000000 (0000ms, 0593ms total)
T1D5C 008:837 JLINK_ReadReg(FAULTMASK)  returns 0x00000000 (0000ms, 0593ms total)
T1D5C 008:837 JLINK_ReadReg(BASEPRI_MAX)  returns 0x00000000 (0000ms, 0593ms total)
T1D5C 008:837 JLINK_ReadMem (0x20000AE4, 0x0004 Bytes, ...) -- CPU_ReadMem(64 bytes @ 0x20000AC0) -- Updating C cache (64 bytes @ 0x20000AC0) -- Read from C cache (4 bytes @ 0x20000AE4) -- Data:  37 02 00 08  returns 0x00 (0002ms, 0595ms total)
T1D5C 008:839 JLINK_ReadMemU32(0xE0001004, 0x0001 Items, ...) -- CPU_ReadMem(4 bytes @ 0xE0001004) -- Data:  2F 30 00 00  returns 0x01 (0001ms, 0596ms total)
T1D5C 008:850 JLINK_ReadMem (0x0800083C, 0x003C Bytes, ...) -- CPU_ReadMem(128 bytes @ 0x08000800) -- Updating C cache (128 bytes @ 0x08000800) -- Read from C cache (60 bytes @ 0x0800083C) -- Data:  48 20 00 F0 05 FC 00 F0 3B F8 00 F0 79 F8 01 F0 ...  returns 0x00 (0003ms, 0599ms total)
T2254 021:715 JLINK_SetBPEx(Addr = 0x08000846, Type = 0xFFFFFFF2)  returns 0x00000006 (0001ms, 0600ms total)
T2254 021:716 JLINK_Go() -- CPU_WriteMem(4 bytes @ 0xE0002008) (0003ms, 0603ms total)
T2254 021:819 JLINK_IsHalted()  returns TRUE (0006ms, 0609ms total)
T2254 021:825 JLINK_Halt()  returns 0x00 (0000ms, 0603ms total)
T2254 021:825 JLINK_IsHalted()  returns TRUE (0000ms, 0603ms total)
T2254 021:825 JLINK_IsHalted()  returns TRUE (0000ms, 0603ms total)
T2254 021:825 JLINK_IsHalted()  returns TRUE (0000ms, 0603ms total)
T2254 021:825 JLINK_ReadReg(R15 (PC))  returns 0x08000846 (0000ms, 0603ms total)
T2254 021:825 JLINK_ReadReg(XPSR)  returns 0x81000000 (0000ms, 0603ms total)
T2254 021:825 JLINK_ClrBPEx(BPHandle = 0x00000006)  returns 0x00 (0001ms, 0604ms total)
T2254 021:826 JLINK_ReadMemU32(0xE000ED30, 0x0001 Items, ...) -- CPU_ReadMem(4 bytes @ 0xE000ED30) -- Data:  03 00 00 00  returns 0x01 (0001ms, 0605ms total)
T2254 021:827 JLINK_ReadMemU32(0xE0001028, 0x0001 Items, ...) -- CPU_ReadMem(4 bytes @ 0xE0001028) -- Data:  00 00 00 00  returns 0x01 (0001ms, 0606ms total)
T2254 021:828 JLINK_ReadMemU32(0xE0001038, 0x0001 Items, ...) -- CPU_ReadMem(4 bytes @ 0xE0001038) -- Data:  00 02 00 00  returns 0x01 (0001ms, 0607ms total)
T2254 021:829 JLINK_ReadMemU32(0xE0001048, 0x0001 Items, ...) -- CPU_ReadMem(4 bytes @ 0xE0001048) -- Data:  00 00 00 00  returns 0x01 (0001ms, 0608ms total)
T2254 021:830 JLINK_ReadMemU32(0xE0001058, 0x0001 Items, ...) -- CPU_ReadMem(4 bytes @ 0xE0001058) -- Data:  00 00 00 00  returns 0x01 (0001ms, 0609ms total)
T1D5C 021:832 JLINK_ReadReg(R0)  returns 0x44344444 (0000ms, 0609ms total)
T1D5C 021:832 JLINK_ReadReg(R1)  returns 0x40011404 (0000ms, 0609ms total)
T1D5C 021:832 JLINK_ReadReg(R2)  returns 0x00000500 (0000ms, 0609ms total)
T1D5C 021:832 JLINK_ReadReg(R3)  returns 0xE000ED0C (0000ms, 0609ms total)
T1D5C 021:832 JLINK_ReadReg(R4)  returns 0x00000000 (0000ms, 0609ms total)
T1D5C 021:832 JLINK_ReadReg(R5)  returns 0x20000288 (0000ms, 0609ms total)
T1D5C 021:832 JLINK_ReadReg(R6)  returns 0x00000000 (0000ms, 0609ms total)
T1D5C 021:832 JLINK_ReadReg(R7)  returns 0x00000000 (0000ms, 0609ms total)
T1D5C 021:832 JLINK_ReadReg(R8)  returns 0x00000000 (0001ms, 0610ms total)
T1D5C 021:833 JLINK_ReadReg(R9)  returns 0x20000160 (0000ms, 0610ms total)
T1D5C 021:833 JLINK_ReadReg(R10)  returns 0x080095E0 (0000ms, 0610ms total)
T1D5C 021:833 JLINK_ReadReg(R11)  returns 0x00000000 (0000ms, 0610ms total)
T1D5C 021:833 JLINK_ReadReg(R12)  returns 0x200002C8 (0000ms, 0610ms total)
T1D5C 021:833 JLINK_ReadReg(R13 (SP))  returns 0x20000AD0 (0000ms, 0610ms total)
T1D5C 021:833 JLINK_ReadReg(R14)  returns 0x08000847 (0000ms, 0610ms total)
T1D5C 021:833 JLINK_ReadReg(R15 (PC))  returns 0x08000846 (0000ms, 0610ms total)
T1D5C 021:833 JLINK_ReadReg(XPSR)  returns 0x81000000 (0000ms, 0610ms total)
T1D5C 021:833 JLINK_ReadReg(MSP)  returns 0x20000AD0 (0000ms, 0610ms total)
T1D5C 021:833 JLINK_ReadReg(PSP)  returns 0x20000800 (0000ms, 0610ms total)
T1D5C 021:833 JLINK_ReadReg(BASEPRI)  returns 0x00000000 (0000ms, 0610ms total)
T1D5C 021:833 JLINK_ReadReg(CONTROL)  returns 0x00000000 (0000ms, 0610ms total)
T1D5C 021:833 JLINK_ReadReg(FAULTMASK)  returns 0x00000000 (0000ms, 0610ms total)
T1D5C 021:833 JLINK_ReadReg(BASEPRI_MAX)  returns 0x00000000 (0000ms, 0610ms total)
T1D5C 021:833 JLINK_ReadMem (0x20000AE4, 0x0004 Bytes, ...) -- CPU_ReadMem(64 bytes @ 0x20000AC0) -- Updating C cache (64 bytes @ 0x20000AC0) -- Read from C cache (4 bytes @ 0x20000AE4) -- Data:  37 02 00 08  returns 0x00 (0002ms, 0612ms total)
T1D5C 021:835 JLINK_ReadMemU32(0xE0001004, 0x0001 Items, ...) -- CPU_ReadMem(4 bytes @ 0xE0001004) -- Data:  D8 30 00 00  returns 0x01 (0001ms, 0613ms total)
T1D5C 021:847 JLINK_ReadMem (0x0800083C, 0x003C Bytes, ...) -- CPU_ReadMem(128 bytes @ 0x08000800) -- Updating C cache (128 bytes @ 0x08000800) -- Read from C cache (60 bytes @ 0x0800083C) -- Data:  48 20 00 F0 05 FC 00 F0 3B F8 00 F0 79 F8 01 F0 ...  returns 0x00 (0003ms, 0616ms total)
T2254 022:499 JLINK_SetBPEx(Addr = 0x0800084A, Type = 0xFFFFFFF2)  returns 0x00000007 (0000ms, 0616ms total)
T2254 022:499 JLINK_Go() -- CPU_WriteMem(4 bytes @ 0xE0002008) (0003ms, 0619ms total)
T2254 022:602 JLINK_IsHalted()  returns TRUE (0006ms, 0625ms total)
T2254 022:608 JLINK_Halt()  returns 0x00 (0000ms, 0619ms total)
T2254 022:608 JLINK_IsHalted()  returns TRUE (0000ms, 0619ms total)
T2254 022:608 JLINK_IsHalted()  returns TRUE (0000ms, 0619ms total)
T2254 022:608 JLINK_IsHalted()  returns TRUE (0000ms, 0619ms total)
T2254 022:608 JLINK_ReadReg(R15 (PC))  returns 0x0800084A (0000ms, 0619ms total)
T2254 022:608 JLINK_ReadReg(XPSR)  returns 0x81000000 (0000ms, 0619ms total)
T2254 022:608 JLINK_ClrBPEx(BPHandle = 0x00000007)  returns 0x00 (0000ms, 0619ms total)
T2254 022:608 JLINK_ReadMemU32(0xE000ED30, 0x0001 Items, ...) -- CPU_ReadMem(4 bytes @ 0xE000ED30) -- Data:  03 00 00 00  returns 0x01 (0002ms, 0621ms total)
T2254 022:610 JLINK_ReadMemU32(0xE0001028, 0x0001 Items, ...) -- CPU_ReadMem(4 bytes @ 0xE0001028) -- Data:  00 00 00 00  returns 0x01 (0001ms, 0622ms total)
T2254 022:611 JLINK_ReadMemU32(0xE0001038, 0x0001 Items, ...) -- CPU_ReadMem(4 bytes @ 0xE0001038) -- Data:  00 02 00 00  returns 0x01 (0001ms, 0623ms total)
T2254 022:612 JLINK_ReadMemU32(0xE0001048, 0x0001 Items, ...) -- CPU_ReadMem(4 bytes @ 0xE0001048) -- Data:  00 00 00 00  returns 0x01 (0001ms, 0624ms total)
T2254 022:613 JLINK_ReadMemU32(0xE0001058, 0x0001 Items, ...) -- CPU_ReadMem(4 bytes @ 0xE0001058) -- Data:  00 00 00 00  returns 0x01 (0001ms, 0625ms total)
T1D5C 022:615 JLINK_ReadReg(R0)  returns 0x00002000 (0000ms, 0625ms total)
T1D5C 022:615 JLINK_ReadReg(R1)  returns 0x40011000 (0000ms, 0625ms total)
T1D5C 022:615 JLINK_ReadReg(R2)  returns 0x00000500 (0000ms, 0625ms total)
T1D5C 022:615 JLINK_ReadReg(R3)  returns 0xE000ED0C (0000ms, 0625ms total)
T1D5C 022:615 JLINK_ReadReg(R4)  returns 0x00000000 (0000ms, 0625ms total)
T1D5C 022:615 JLINK_ReadReg(R5)  returns 0x20000288 (0000ms, 0625ms total)
T1D5C 022:615 JLINK_ReadReg(R6)  returns 0x00000000 (0000ms, 0625ms total)
T1D5C 022:615 JLINK_ReadReg(R7)  returns 0x00000000 (0000ms, 0625ms total)
T1D5C 022:615 JLINK_ReadReg(R8)  returns 0x00000000 (0001ms, 0626ms total)
T1D5C 022:616 JLINK_ReadReg(R9)  returns 0x20000160 (0000ms, 0626ms total)
T1D5C 022:616 JLINK_ReadReg(R10)  returns 0x080095E0 (0000ms, 0626ms total)
T1D5C 022:616 JLINK_ReadReg(R11)  returns 0x00000000 (0000ms, 0626ms total)
T1D5C 022:616 JLINK_ReadReg(R12)  returns 0x200002C8 (0000ms, 0626ms total)
T1D5C 022:616 JLINK_ReadReg(R13 (SP))  returns 0x20000AD0 (0000ms, 0626ms total)
T1D5C 022:616 JLINK_ReadReg(R14)  returns 0x0800084B (0000ms, 0626ms total)
T1D5C 022:616 JLINK_ReadReg(R15 (PC))  returns 0x0800084A (0000ms, 0626ms total)
T1D5C 022:616 JLINK_ReadReg(XPSR)  returns 0x81000000 (0000ms, 0626ms total)
T1D5C 022:616 JLINK_ReadReg(MSP)  returns 0x20000AD0 (0000ms, 0626ms total)
T1D5C 022:616 JLINK_ReadReg(PSP)  returns 0x20000800 (0000ms, 0626ms total)
T1D5C 022:616 JLINK_ReadReg(BASEPRI)  returns 0x00000000 (0000ms, 0626ms total)
T1D5C 022:616 JLINK_ReadReg(CONTROL)  returns 0x00000000 (0000ms, 0626ms total)
T1D5C 022:616 JLINK_ReadReg(FAULTMASK)  returns 0x00000000 (0000ms, 0626ms total)
T1D5C 022:616 JLINK_ReadReg(BASEPRI_MAX)  returns 0x00000000 (0000ms, 0626ms total)
T1D5C 022:616 JLINK_ReadMem (0x20000AE4, 0x0004 Bytes, ...) -- CPU_ReadMem(64 bytes @ 0x20000AC0) -- Updating C cache (64 bytes @ 0x20000AC0) -- Read from C cache (4 bytes @ 0x20000AE4) -- Data:  37 02 00 08  returns 0x00 (0002ms, 0628ms total)
T1D5C 022:618 JLINK_ReadMemU32(0xE0001004, 0x0001 Items, ...) -- CPU_ReadMem(4 bytes @ 0xE0001004) -- Data:  AA 31 00 00  returns 0x01 (0001ms, 0629ms total)
T1D5C 022:628 JLINK_ReadMem (0x0800083C, 0x003C Bytes, ...) -- CPU_ReadMem(128 bytes @ 0x08000800) -- Updating C cache (128 bytes @ 0x08000800) -- Read from C cache (60 bytes @ 0x0800083C) -- Data:  48 20 00 F0 05 FC 00 F0 3B F8 00 F0 79 F8 01 F0 ...  returns 0x00 (0003ms, 0632ms total)
T2254 023:043 JLINK_SetBPEx(Addr = 0x0800084E, Type = 0xFFFFFFF2)  returns 0x00000008 (0001ms, 0633ms total)
T2254 023:044 JLINK_Go() -- CPU_WriteMem(4 bytes @ 0xE0002008) (0002ms, 0635ms total)
T2254 023:146 JLINK_IsHalted()  returns TRUE (0006ms, 0641ms total)
T2254 023:152 JLINK_Halt()  returns 0x00 (0000ms, 0635ms total)
T2254 023:152 JLINK_IsHalted()  returns TRUE (0000ms, 0635ms total)
T2254 023:152 JLINK_IsHalted()  returns TRUE (0000ms, 0635ms total)
T2254 023:152 JLINK_IsHalted()  returns TRUE (0000ms, 0635ms total)
T2254 023:152 JLINK_ReadReg(R15 (PC))  returns 0x0800084E (0000ms, 0635ms total)
T2254 023:152 JLINK_ReadReg(XPSR)  returns 0x81000000 (0000ms, 0635ms total)
T2254 023:152 JLINK_ClrBPEx(BPHandle = 0x00000008)  returns 0x00 (0001ms, 0636ms total)
T2254 023:153 JLINK_ReadMemU32(0xE000ED30, 0x0001 Items, ...) -- CPU_ReadMem(4 bytes @ 0xE000ED30) -- Data:  03 00 00 00  returns 0x01 (0001ms, 0637ms total)
T2254 023:154 JLINK_ReadMemU32(0xE0001028, 0x0001 Items, ...) -- CPU_ReadMem(4 bytes @ 0xE0001028) -- Data:  00 00 00 00  returns 0x01 (0001ms, 0638ms total)
T2254 023:155 JLINK_ReadMemU32(0xE0001038, 0x0001 Items, ...) -- CPU_ReadMem(4 bytes @ 0xE0001038) -- Data:  00 02 00 00  returns 0x01 (0001ms, 0639ms total)
T2254 023:156 JLINK_ReadMemU32(0xE0001048, 0x0001 Items, ...) -- CPU_ReadMem(4 bytes @ 0xE0001048) -- Data:  00 00 00 00  returns 0x01 (0001ms, 0640ms total)
T2254 023:157 JLINK_ReadMemU32(0xE0001058, 0x0001 Items, ...) -- CPU_ReadMem(4 bytes @ 0xE0001058) -- Data:  00 00 00 00  returns 0x01 (0001ms, 0641ms total)
T1D5C 023:160 JLINK_ReadReg(R0)  returns 0x33484444 (0000ms, 0641ms total)
T1D5C 023:160 JLINK_ReadReg(R1)  returns 0x40010C00 (0000ms, 0641ms total)
T1D5C 023:160 JLINK_ReadReg(R2)  returns 0x00000500 (0001ms, 0642ms total)
T1D5C 023:161 JLINK_ReadReg(R3)  returns 0xE000ED0C (0000ms, 0642ms total)
T1D5C 023:161 JLINK_ReadReg(R4)  returns 0x00000000 (0000ms, 0642ms total)
T1D5C 023:161 JLINK_ReadReg(R5)  returns 0x20000288 (0000ms, 0642ms total)
T1D5C 023:161 JLINK_ReadReg(R6)  returns 0x00000000 (0000ms, 0642ms total)
T1D5C 023:161 JLINK_ReadReg(R7)  returns 0x00000000 (0000ms, 0642ms total)
